#Digilent WaveForms Logic Analyzer Acquisition
#Device Name: Discovery2
#Serial Number: SN:210321B2E38D
#Date Time: 2025-04-07 17:06:28.436
#Sample rate: 400000Hz
#Samples: 4096

Time (s),Bus,DIO  6,DIO  5,DIO  4,DIO  3,DIO  2,DIO  1,DIO  0
-0.0051175,0,0,0,0,0,0,0,0
-0.005115,0,0,0,0,0,0,0,0
-0.0051125,0,0,0,0,0,0,0,0
-0.00511,0,0,0,0,0,0,0,0
-0.0051075,0,0,0,0,0,0,0,0
-0.005105,0,0,0,0,0,0,0,0
-0.0051025,0,0,0,0,0,0,0,0
-0.0051,0,0,0,0,0,0,0,0
-0.0050975,0,0,0,0,0,0,0,0
-0.005095,0,0,0,0,0,0,0,0
-0.0050925,0,0,0,0,0,0,0,0
-0.00509,0,0,0,0,0,0,0,0
-0.0050875,0,0,0,0,0,0,0,0
-0.005085,0,0,0,0,0,0,0,0
-0.0050825,0,0,0,0,0,0,0,0
-0.00508,0,0,0,0,0,0,0,0
-0.0050775,0,0,0,0,0,0,0,0
-0.005075,0,0,0,0,0,0,0,0
-0.0050725,0,0,0,0,0,0,0,0
-0.00507,0,0,0,0,0,0,0,0
-0.0050675,0,0,0,0,0,0,0,0
-0.005065,0,0,0,0,0,0,0,0
-0.0050625,0,0,0,0,0,0,0,0
-0.00506,0,0,0,0,0,0,0,0
-0.0050575,0,0,0,0,0,0,0,0
-0.005055,0,0,0,0,0,0,0,0
-0.0050525,0,0,0,0,0,0,0,0
-0.00505,0,0,0,0,0,0,0,0
-0.0050475,0,0,0,0,0,0,0,0
-0.005045,0,0,0,0,0,0,0,0
-0.0050425,0,0,0,0,0,0,0,0
-0.00504,0,0,0,0,0,0,0,0
-0.0050375,0,0,0,0,0,0,0,0
-0.005035,0,0,0,0,0,0,0,0
-0.0050325,0,0,0,0,0,0,0,0
-0.00503,0,0,0,0,0,0,0,0
-0.0050275,0,0,0,0,0,0,0,0
-0.005025,0,0,0,0,0,0,0,0
-0.0050225,0,0,0,0,0,0,0,0
-0.00502,0,0,0,0,0,0,0,0
-0.0050175,0,0,0,0,0,0,0,0
-0.005015,0,0,0,0,0,0,0,0
-0.0050125,0,0,0,0,0,0,0,0
-0.00501,0,0,0,0,0,0,0,0
-0.0050075,0,0,0,0,0,0,0,0
-0.005005,0,0,0,0,0,0,0,0
-0.0050025,0,0,0,0,0,0,0,0
-0.005,0,0,0,0,0,0,0,0
-0.0049975,0,0,0,0,0,0,0,0
-0.004995,0,0,0,0,0,0,0,0
-0.0049925,0,0,0,0,0,0,0,0
-0.00499,0,0,0,0,0,0,0,0
-0.0049875,0,0,0,0,0,0,0,0
-0.004985,0,0,0,0,0,0,0,0
-0.0049825,0,0,0,0,0,0,0,0
-0.00498,0,0,0,0,0,0,0,0
-0.0049775,0,0,0,0,0,0,0,0
-0.004975,0,0,0,0,0,0,0,0
-0.0049725,0,0,0,0,0,0,0,0
-0.00497,0,0,0,0,0,0,0,0
-0.0049675,0,0,0,0,0,0,0,0
-0.004965,0,0,0,0,0,0,0,0
-0.0049625,0,0,0,0,0,0,0,0
-0.00496,0,0,0,0,0,0,0,0
-0.0049575,0,0,0,0,0,0,0,0
-0.004955,0,0,0,0,0,0,0,0
-0.0049525,0,0,0,0,0,0,0,0
-0.00495,0,0,0,0,0,0,0,0
-0.0049475,0,0,0,0,0,0,0,0
-0.004945,1,0,0,0,0,0,0,1
-0.0049425,1,0,0,0,0,0,0,1
-0.00494,1,0,0,0,0,0,0,1
-0.0049375,1,0,0,0,0,0,0,1
-0.004935,1,0,0,0,0,0,0,1
-0.0049325,1,0,0,0,0,0,0,1
-0.00493,1,0,0,0,0,0,0,1
-0.0049275,1,0,0,0,0,0,0,1
-0.004925,1,0,0,0,0,0,0,1
-0.0049225,1,0,0,0,0,0,0,1
-0.00492,1,0,0,0,0,0,0,1
-0.0049175,1,0,0,0,0,0,0,1
-0.004915,1,0,0,0,0,0,0,1
-0.0049125,1,0,0,0,0,0,0,1
-0.00491,1,0,0,0,0,0,0,1
-0.0049075,1,0,0,0,0,0,0,1
-0.004905,1,0,0,0,0,0,0,1
-0.0049025,1,0,0,0,0,0,0,1
-0.0049,1,0,0,0,0,0,0,1
-0.0048975,3,0,0,0,0,0,1,1
-0.004895,3,0,0,0,0,0,1,1
-0.0048925,3,0,0,0,0,0,1,1
-0.00489,3,0,0,0,0,0,1,1
-0.0048875,3,0,0,0,0,0,1,1
-0.004885,3,0,0,0,0,0,1,1
-0.0048825,3,0,0,0,0,0,1,1
-0.00488,3,0,0,0,0,0,1,1
-0.0048775,3,0,0,0,0,0,1,1
-0.004875,3,0,0,0,0,0,1,1
-0.0048725,3,0,0,0,0,0,1,1
-0.00487,3,0,0,0,0,0,1,1
-0.0048675,3,0,0,0,0,0,1,1
-0.004865,3,0,0,0,0,0,1,1
-0.0048625,3,0,0,0,0,0,1,1
-0.00486,3,0,0,0,0,0,1,1
-0.0048575,3,0,0,0,0,0,1,1
-0.004855,3,0,0,0,0,0,1,1
-0.0048525,3,0,0,0,0,0,1,1
-0.00485,3,0,0,0,0,0,1,1
-0.0048475,7,0,0,0,0,1,1,1
-0.004845,7,0,0,0,0,1,1,1
-0.0048425,7,0,0,0,0,1,1,1
-0.00484,7,0,0,0,0,1,1,1
-0.0048375,7,0,0,0,0,1,1,1
-0.004835,7,0,0,0,0,1,1,1
-0.0048325,7,0,0,0,0,1,1,1
-0.00483,7,0,0,0,0,1,1,1
-0.0048275,7,0,0,0,0,1,1,1
-0.004825,7,0,0,0,0,1,1,1
-0.0048225,7,0,0,0,0,1,1,1
-0.00482,7,0,0,0,0,1,1,1
-0.0048175,7,0,0,0,0,1,1,1
-0.004815,7,0,0,0,0,1,1,1
-0.0048125,7,0,0,0,0,1,1,1
-0.00481,7,0,0,0,0,1,1,1
-0.0048075,7,0,0,0,0,1,1,1
-0.004805,7,0,0,0,0,1,1,1
-0.0048025,7,0,0,0,0,1,1,1
-0.0048,7,0,0,0,0,1,1,1
-0.0047975,15,0,0,0,1,1,1,1
-0.004795,15,0,0,0,1,1,1,1
-0.0047925,15,0,0,0,1,1,1,1
-0.00479,15,0,0,0,1,1,1,1
-0.0047875,15,0,0,0,1,1,1,1
-0.004785,15,0,0,0,1,1,1,1
-0.0047825,15,0,0,0,1,1,1,1
-0.00478,15,0,0,0,1,1,1,1
-0.0047775,15,0,0,0,1,1,1,1
-0.004775,15,0,0,0,1,1,1,1
-0.0047725,15,0,0,0,1,1,1,1
-0.00477,15,0,0,0,1,1,1,1
-0.0047675,15,0,0,0,1,1,1,1
-0.004765,15,0,0,0,1,1,1,1
-0.0047625,15,0,0,0,1,1,1,1
-0.00476,15,0,0,0,1,1,1,1
-0.0047575,15,0,0,0,1,1,1,1
-0.004755,15,0,0,0,1,1,1,1
-0.0047525,15,0,0,0,1,1,1,1
-0.00475,15,0,0,0,1,1,1,1
-0.0047475,31,0,0,1,1,1,1,1
-0.004745,31,0,0,1,1,1,1,1
-0.0047425,31,0,0,1,1,1,1,1
-0.00474,31,0,0,1,1,1,1,1
-0.0047375,31,0,0,1,1,1,1,1
-0.004735,31,0,0,1,1,1,1,1
-0.0047325,31,0,0,1,1,1,1,1
-0.00473,31,0,0,1,1,1,1,1
-0.0047275,31,0,0,1,1,1,1,1
-0.004725,31,0,0,1,1,1,1,1
-0.0047225,31,0,0,1,1,1,1,1
-0.00472,31,0,0,1,1,1,1,1
-0.0047175,31,0,0,1,1,1,1,1
-0.004715,31,0,0,1,1,1,1,1
-0.0047125,31,0,0,1,1,1,1,1
-0.00471,31,0,0,1,1,1,1,1
-0.0047075,31,0,0,1,1,1,1,1
-0.004705,31,0,0,1,1,1,1,1
-0.0047025,31,0,0,1,1,1,1,1
-0.0047,31,0,0,1,1,1,1,1
-0.0046975,63,0,1,1,1,1,1,1
-0.004695,63,0,1,1,1,1,1,1
-0.0046925,63,0,1,1,1,1,1,1
-0.00469,63,0,1,1,1,1,1,1
-0.0046875,63,0,1,1,1,1,1,1
-0.004685,63,0,1,1,1,1,1,1
-0.0046825,63,0,1,1,1,1,1,1
-0.00468,63,0,1,1,1,1,1,1
-0.0046775,63,0,1,1,1,1,1,1
-0.004675,63,0,1,1,1,1,1,1
-0.0046725,63,0,1,1,1,1,1,1
-0.00467,63,0,1,1,1,1,1,1
-0.0046675,63,0,1,1,1,1,1,1
-0.004665,63,0,1,1,1,1,1,1
-0.0046625,63,0,1,1,1,1,1,1
-0.00466,63,0,1,1,1,1,1,1
-0.0046575,63,0,1,1,1,1,1,1
-0.004655,63,0,1,1,1,1,1,1
-0.0046525,63,0,1,1,1,1,1,1
-0.00465,63,0,1,1,1,1,1,1
-0.0046475,127,1,1,1,1,1,1,1
-0.004645,127,1,1,1,1,1,1,1
-0.0046425,127,1,1,1,1,1,1,1
-0.00464,127,1,1,1,1,1,1,1
-0.0046375,127,1,1,1,1,1,1,1
-0.004635,127,1,1,1,1,1,1,1
-0.0046325,127,1,1,1,1,1,1,1
-0.00463,127,1,1,1,1,1,1,1
-0.0046275,127,1,1,1,1,1,1,1
-0.004625,127,1,1,1,1,1,1,1
-0.0046225,127,1,1,1,1,1,1,1
-0.00462,127,1,1,1,1,1,1,1
-0.0046175,127,1,1,1,1,1,1,1
-0.004615,127,1,1,1,1,1,1,1
-0.0046125,127,1,1,1,1,1,1,1
-0.00461,127,1,1,1,1,1,1,1
-0.0046075,127,1,1,1,1,1,1,1
-0.004605,127,1,1,1,1,1,1,1
-0.0046025,127,1,1,1,1,1,1,1
-0.0046,127,1,1,1,1,1,1,1
-0.0045975,127,1,1,1,1,1,1,1
-0.004595,127,1,1,1,1,1,1,1
-0.0045925,127,1,1,1,1,1,1,1
-0.00459,127,1,1,1,1,1,1,1
-0.0045875,127,1,1,1,1,1,1,1
-0.004585,127,1,1,1,1,1,1,1
-0.0045825,127,1,1,1,1,1,1,1
-0.00458,127,1,1,1,1,1,1,1
-0.0045775,127,1,1,1,1,1,1,1
-0.004575,127,1,1,1,1,1,1,1
-0.0045725,127,1,1,1,1,1,1,1
-0.00457,127,1,1,1,1,1,1,1
-0.0045675,127,1,1,1,1,1,1,1
-0.004565,127,1,1,1,1,1,1,1
-0.0045625,127,1,1,1,1,1,1,1
-0.00456,127,1,1,1,1,1,1,1
-0.0045575,127,1,1,1,1,1,1,1
-0.004555,127,1,1,1,1,1,1,1
-0.0045525,127,1,1,1,1,1,1,1
-0.00455,127,1,1,1,1,1,1,1
-0.0045475,127,1,1,1,1,1,1,1
-0.004545,127,1,1,1,1,1,1,1
-0.0045425,127,1,1,1,1,1,1,1
-0.00454,127,1,1,1,1,1,1,1
-0.0045375,127,1,1,1,1,1,1,1
-0.004535,127,1,1,1,1,1,1,1
-0.0045325,127,1,1,1,1,1,1,1
-0.00453,127,1,1,1,1,1,1,1
-0.0045275,127,1,1,1,1,1,1,1
-0.004525,127,1,1,1,1,1,1,1
-0.0045225,127,1,1,1,1,1,1,1
-0.00452,127,1,1,1,1,1,1,1
-0.0045175,127,1,1,1,1,1,1,1
-0.004515,1,0,0,0,0,0,0,1
-0.0045125,0,0,0,0,0,0,0,0
-0.00451,0,0,0,0,0,0,0,0
-0.0045075,0,0,0,0,0,0,0,0
-0.004505,0,0,0,0,0,0,0,0
-0.0045025,0,0,0,0,0,0,0,0
-0.0045,0,0,0,0,0,0,0,0
-0.0044975,0,0,0,0,0,0,0,0
-0.004495,0,0,0,0,0,0,0,0
-0.0044925,0,0,0,0,0,0,0,0
-0.00449,0,0,0,0,0,0,0,0
-0.0044875,0,0,0,0,0,0,0,0
-0.004485,0,0,0,0,0,0,0,0
-0.0044825,0,0,0,0,0,0,0,0
-0.00448,0,0,0,0,0,0,0,0
-0.0044775,0,0,0,0,0,0,0,0
-0.004475,0,0,0,0,0,0,0,0
-0.0044725,0,0,0,0,0,0,0,0
-0.00447,0,0,0,0,0,0,0,0
-0.0044675,0,0,0,0,0,0,0,0
-0.004465,0,0,0,0,0,0,0,0
-0.0044625,0,0,0,0,0,0,0,0
-0.00446,0,0,0,0,0,0,0,0
-0.0044575,0,0,0,0,0,0,0,0
-0.004455,0,0,0,0,0,0,0,0
-0.0044525,0,0,0,0,0,0,0,0
-0.00445,0,0,0,0,0,0,0,0
-0.0044475,0,0,0,0,0,0,0,0
-0.004445,0,0,0,0,0,0,0,0
-0.0044425,0,0,0,0,0,0,0,0
-0.00444,0,0,0,0,0,0,0,0
-0.0044375,0,0,0,0,0,0,0,0
-0.004435,0,0,0,0,0,0,0,0
-0.0044325,0,0,0,0,0,0,0,0
-0.00443,0,0,0,0,0,0,0,0
-0.0044275,0,0,0,0,0,0,0,0
-0.004425,0,0,0,0,0,0,0,0
-0.0044225,0,0,0,0,0,0,0,0
-0.00442,0,0,0,0,0,0,0,0
-0.0044175,0,0,0,0,0,0,0,0
-0.004415,0,0,0,0,0,0,0,0
-0.0044125,0,0,0,0,0,0,0,0
-0.00441,0,0,0,0,0,0,0,0
-0.0044075,0,0,0,0,0,0,0,0
-0.004405,0,0,0,0,0,0,0,0
-0.0044025,0,0,0,0,0,0,0,0
-0.0044,0,0,0,0,0,0,0,0
-0.0043975,0,0,0,0,0,0,0,0
-0.004395,0,0,0,0,0,0,0,0
-0.0043925,0,0,0,0,0,0,0,0
-0.00439,0,0,0,0,0,0,0,0
-0.0043875,0,0,0,0,0,0,0,0
-0.004385,0,0,0,0,0,0,0,0
-0.0043825,0,0,0,0,0,0,0,0
-0.00438,0,0,0,0,0,0,0,0
-0.0043775,0,0,0,0,0,0,0,0
-0.004375,0,0,0,0,0,0,0,0
-0.0043725,0,0,0,0,0,0,0,0
-0.00437,0,0,0,0,0,0,0,0
-0.0043675,0,0,0,0,0,0,0,0
-0.004365,0,0,0,0,0,0,0,0
-0.0043625,0,0,0,0,0,0,0,0
-0.00436,0,0,0,0,0,0,0,0
-0.0043575,0,0,0,0,0,0,0,0
-0.004355,0,0,0,0,0,0,0,0
-0.0043525,0,0,0,0,0,0,0,0
-0.00435,0,0,0,0,0,0,0,0
-0.0043475,0,0,0,0,0,0,0,0
-0.004345,0,0,0,0,0,0,0,0
-0.0043425,0,0,0,0,0,0,0,0
-0.00434,0,0,0,0,0,0,0,0
-0.0043375,0,0,0,0,0,0,0,0
-0.004335,0,0,0,0,0,0,0,0
-0.0043325,0,0,0,0,0,0,0,0
-0.00433,0,0,0,0,0,0,0,0
-0.0043275,0,0,0,0,0,0,0,0
-0.004325,0,0,0,0,0,0,0,0
-0.0043225,0,0,0,0,0,0,0,0
-0.00432,0,0,0,0,0,0,0,0
-0.0043175,0,0,0,0,0,0,0,0
-0.004315,0,0,0,0,0,0,0,0
-0.0043125,0,0,0,0,0,0,0,0
-0.00431,0,0,0,0,0,0,0,0
-0.0043075,0,0,0,0,0,0,0,0
-0.004305,0,0,0,0,0,0,0,0
-0.0043025,0,0,0,0,0,0,0,0
-0.0043,0,0,0,0,0,0,0,0
-0.0042975,0,0,0,0,0,0,0,0
-0.004295,0,0,0,0,0,0,0,0
-0.0042925,0,0,0,0,0,0,0,0
-0.00429,0,0,0,0,0,0,0,0
-0.0042875,0,0,0,0,0,0,0,0
-0.004285,0,0,0,0,0,0,0,0
-0.0042825,0,0,0,0,0,0,0,0
-0.00428,0,0,0,0,0,0,0,0
-0.0042775,0,0,0,0,0,0,0,0
-0.004275,0,0,0,0,0,0,0,0
-0.0042725,0,0,0,0,0,0,0,0
-0.00427,0,0,0,0,0,0,0,0
-0.0042675,0,0,0,0,0,0,0,0
-0.004265,0,0,0,0,0,0,0,0
-0.0042625,0,0,0,0,0,0,0,0
-0.00426,0,0,0,0,0,0,0,0
-0.0042575,0,0,0,0,0,0,0,0
-0.004255,0,0,0,0,0,0,0,0
-0.0042525,0,0,0,0,0,0,0,0
-0.00425,0,0,0,0,0,0,0,0
-0.0042475,0,0,0,0,0,0,0,0
-0.004245,0,0,0,0,0,0,0,0
-0.0042425,0,0,0,0,0,0,0,0
-0.00424,0,0,0,0,0,0,0,0
-0.0042375,0,0,0,0,0,0,0,0
-0.004235,0,0,0,0,0,0,0,0
-0.0042325,0,0,0,0,0,0,0,0
-0.00423,0,0,0,0,0,0,0,0
-0.0042275,0,0,0,0,0,0,0,0
-0.004225,0,0,0,0,0,0,0,0
-0.0042225,0,0,0,0,0,0,0,0
-0.00422,0,0,0,0,0,0,0,0
-0.0042175,0,0,0,0,0,0,0,0
-0.004215,0,0,0,0,0,0,0,0
-0.0042125,0,0,0,0,0,0,0,0
-0.00421,0,0,0,0,0,0,0,0
-0.0042075,0,0,0,0,0,0,0,0
-0.004205,0,0,0,0,0,0,0,0
-0.0042025,0,0,0,0,0,0,0,0
-0.0042,0,0,0,0,0,0,0,0
-0.0041975,0,0,0,0,0,0,0,0
-0.004195,0,0,0,0,0,0,0,0
-0.0041925,0,0,0,0,0,0,0,0
-0.00419,0,0,0,0,0,0,0,0
-0.0041875,0,0,0,0,0,0,0,0
-0.004185,0,0,0,0,0,0,0,0
-0.0041825,0,0,0,0,0,0,0,0
-0.00418,0,0,0,0,0,0,0,0
-0.0041775,0,0,0,0,0,0,0,0
-0.004175,0,0,0,0,0,0,0,0
-0.0041725,0,0,0,0,0,0,0,0
-0.00417,0,0,0,0,0,0,0,0
-0.0041675,0,0,0,0,0,0,0,0
-0.004165,0,0,0,0,0,0,0,0
-0.0041625,0,0,0,0,0,0,0,0
-0.00416,0,0,0,0,0,0,0,0
-0.0041575,0,0,0,0,0,0,0,0
-0.004155,0,0,0,0,0,0,0,0
-0.0041525,0,0,0,0,0,0,0,0
-0.00415,0,0,0,0,0,0,0,0
-0.0041475,0,0,0,0,0,0,0,0
-0.004145,0,0,0,0,0,0,0,0
-0.0041425,0,0,0,0,0,0,0,0
-0.00414,0,0,0,0,0,0,0,0
-0.0041375,0,0,0,0,0,0,0,0
-0.004135,0,0,0,0,0,0,0,0
-0.0041325,0,0,0,0,0,0,0,0
-0.00413,0,0,0,0,0,0,0,0
-0.0041275,0,0,0,0,0,0,0,0
-0.004125,0,0,0,0,0,0,0,0
-0.0041225,0,0,0,0,0,0,0,0
-0.00412,0,0,0,0,0,0,0,0
-0.0041175,0,0,0,0,0,0,0,0
-0.004115,0,0,0,0,0,0,0,0
-0.0041125,0,0,0,0,0,0,0,0
-0.00411,0,0,0,0,0,0,0,0
-0.0041075,0,0,0,0,0,0,0,0
-0.004105,0,0,0,0,0,0,0,0
-0.0041025,0,0,0,0,0,0,0,0
-0.0041,0,0,0,0,0,0,0,0
-0.0040975,0,0,0,0,0,0,0,0
-0.004095,0,0,0,0,0,0,0,0
-0.0040925,0,0,0,0,0,0,0,0
-0.00409,0,0,0,0,0,0,0,0
-0.0040875,0,0,0,0,0,0,0,0
-0.004085,0,0,0,0,0,0,0,0
-0.0040825,0,0,0,0,0,0,0,0
-0.00408,0,0,0,0,0,0,0,0
-0.0040775,0,0,0,0,0,0,0,0
-0.004075,0,0,0,0,0,0,0,0
-0.0040725,0,0,0,0,0,0,0,0
-0.00407,0,0,0,0,0,0,0,0
-0.0040675,0,0,0,0,0,0,0,0
-0.004065,0,0,0,0,0,0,0,0
-0.0040625,0,0,0,0,0,0,0,0
-0.00406,0,0,0,0,0,0,0,0
-0.0040575,0,0,0,0,0,0,0,0
-0.004055,0,0,0,0,0,0,0,0
-0.0040525,0,0,0,0,0,0,0,0
-0.00405,0,0,0,0,0,0,0,0
-0.0040475,0,0,0,0,0,0,0,0
-0.004045,0,0,0,0,0,0,0,0
-0.0040425,0,0,0,0,0,0,0,0
-0.00404,0,0,0,0,0,0,0,0
-0.0040375,0,0,0,0,0,0,0,0
-0.004035,0,0,0,0,0,0,0,0
-0.0040325,0,0,0,0,0,0,0,0
-0.00403,0,0,0,0,0,0,0,0
-0.0040275,0,0,0,0,0,0,0,0
-0.004025,0,0,0,0,0,0,0,0
-0.0040225,0,0,0,0,0,0,0,0
-0.00402,0,0,0,0,0,0,0,0
-0.0040175,0,0,0,0,0,0,0,0
-0.004015,0,0,0,0,0,0,0,0
-0.0040125,0,0,0,0,0,0,0,0
-0.00401,0,0,0,0,0,0,0,0
-0.0040075,0,0,0,0,0,0,0,0
-0.004005,0,0,0,0,0,0,0,0
-0.0040025,0,0,0,0,0,0,0,0
-0.004,0,0,0,0,0,0,0,0
-0.0039975,0,0,0,0,0,0,0,0
-0.003995,0,0,0,0,0,0,0,0
-0.0039925,0,0,0,0,0,0,0,0
-0.00399,0,0,0,0,0,0,0,0
-0.0039875,0,0,0,0,0,0,0,0
-0.003985,0,0,0,0,0,0,0,0
-0.0039825,0,0,0,0,0,0,0,0
-0.00398,0,0,0,0,0,0,0,0
-0.0039775,0,0,0,0,0,0,0,0
-0.003975,0,0,0,0,0,0,0,0
-0.0039725,0,0,0,0,0,0,0,0
-0.00397,0,0,0,0,0,0,0,0
-0.0039675,0,0,0,0,0,0,0,0
-0.003965,0,0,0,0,0,0,0,0
-0.0039625,0,0,0,0,0,0,0,0
-0.00396,0,0,0,0,0,0,0,0
-0.0039575,0,0,0,0,0,0,0,0
-0.003955,0,0,0,0,0,0,0,0
-0.0039525,0,0,0,0,0,0,0,0
-0.00395,0,0,0,0,0,0,0,0
-0.0039475,0,0,0,0,0,0,0,0
-0.003945,1,0,0,0,0,0,0,1
-0.0039425,1,0,0,0,0,0,0,1
-0.00394,1,0,0,0,0,0,0,1
-0.0039375,1,0,0,0,0,0,0,1
-0.003935,1,0,0,0,0,0,0,1
-0.0039325,1,0,0,0,0,0,0,1
-0.00393,1,0,0,0,0,0,0,1
-0.0039275,1,0,0,0,0,0,0,1
-0.003925,1,0,0,0,0,0,0,1
-0.0039225,1,0,0,0,0,0,0,1
-0.00392,1,0,0,0,0,0,0,1
-0.0039175,1,0,0,0,0,0,0,1
-0.003915,1,0,0,0,0,0,0,1
-0.0039125,1,0,0,0,0,0,0,1
-0.00391,1,0,0,0,0,0,0,1
-0.0039075,1,0,0,0,0,0,0,1
-0.003905,1,0,0,0,0,0,0,1
-0.0039025,1,0,0,0,0,0,0,1
-0.0039,1,0,0,0,0,0,0,1
-0.0038975,3,0,0,0,0,0,1,1
-0.003895,3,0,0,0,0,0,1,1
-0.0038925,3,0,0,0,0,0,1,1
-0.00389,3,0,0,0,0,0,1,1
-0.0038875,3,0,0,0,0,0,1,1
-0.003885,3,0,0,0,0,0,1,1
-0.0038825,3,0,0,0,0,0,1,1
-0.00388,3,0,0,0,0,0,1,1
-0.0038775,3,0,0,0,0,0,1,1
-0.003875,3,0,0,0,0,0,1,1
-0.0038725,3,0,0,0,0,0,1,1
-0.00387,3,0,0,0,0,0,1,1
-0.0038675,3,0,0,0,0,0,1,1
-0.003865,3,0,0,0,0,0,1,1
-0.0038625,3,0,0,0,0,0,1,1
-0.00386,3,0,0,0,0,0,1,1
-0.0038575,3,0,0,0,0,0,1,1
-0.003855,3,0,0,0,0,0,1,1
-0.0038525,3,0,0,0,0,0,1,1
-0.00385,3,0,0,0,0,0,1,1
-0.0038475,7,0,0,0,0,1,1,1
-0.003845,7,0,0,0,0,1,1,1
-0.0038425,7,0,0,0,0,1,1,1
-0.00384,7,0,0,0,0,1,1,1
-0.0038375,7,0,0,0,0,1,1,1
-0.003835,7,0,0,0,0,1,1,1
-0.0038325,7,0,0,0,0,1,1,1
-0.00383,7,0,0,0,0,1,1,1
-0.0038275,7,0,0,0,0,1,1,1
-0.003825,7,0,0,0,0,1,1,1
-0.0038225,7,0,0,0,0,1,1,1
-0.00382,7,0,0,0,0,1,1,1
-0.0038175,7,0,0,0,0,1,1,1
-0.003815,7,0,0,0,0,1,1,1
-0.0038125,7,0,0,0,0,1,1,1
-0.00381,7,0,0,0,0,1,1,1
-0.0038075,7,0,0,0,0,1,1,1
-0.003805,7,0,0,0,0,1,1,1
-0.0038025,7,0,0,0,0,1,1,1
-0.0038,7,0,0,0,0,1,1,1
-0.0037975,15,0,0,0,1,1,1,1
-0.003795,15,0,0,0,1,1,1,1
-0.0037925,15,0,0,0,1,1,1,1
-0.00379,15,0,0,0,1,1,1,1
-0.0037875,15,0,0,0,1,1,1,1
-0.003785,15,0,0,0,1,1,1,1
-0.0037825,15,0,0,0,1,1,1,1
-0.00378,15,0,0,0,1,1,1,1
-0.0037775,15,0,0,0,1,1,1,1
-0.003775,15,0,0,0,1,1,1,1
-0.0037725,15,0,0,0,1,1,1,1
-0.00377,15,0,0,0,1,1,1,1
-0.0037675,15,0,0,0,1,1,1,1
-0.003765,15,0,0,0,1,1,1,1
-0.0037625,15,0,0,0,1,1,1,1
-0.00376,15,0,0,0,1,1,1,1
-0.0037575,15,0,0,0,1,1,1,1
-0.003755,15,0,0,0,1,1,1,1
-0.0037525,15,0,0,0,1,1,1,1
-0.00375,31,0,0,1,1,1,1,1
-0.0037475,31,0,0,1,1,1,1,1
-0.003745,31,0,0,1,1,1,1,1
-0.0037425,31,0,0,1,1,1,1,1
-0.00374,31,0,0,1,1,1,1,1
-0.0037375,31,0,0,1,1,1,1,1
-0.003735,31,0,0,1,1,1,1,1
-0.0037325,31,0,0,1,1,1,1,1
-0.00373,31,0,0,1,1,1,1,1
-0.0037275,31,0,0,1,1,1,1,1
-0.003725,31,0,0,1,1,1,1,1
-0.0037225,31,0,0,1,1,1,1,1
-0.00372,31,0,0,1,1,1,1,1
-0.0037175,31,0,0,1,1,1,1,1
-0.003715,31,0,0,1,1,1,1,1
-0.0037125,31,0,0,1,1,1,1,1
-0.00371,31,0,0,1,1,1,1,1
-0.0037075,31,0,0,1,1,1,1,1
-0.003705,31,0,0,1,1,1,1,1
-0.0037025,31,0,0,1,1,1,1,1
-0.0037,31,0,0,1,1,1,1,1
-0.0036975,63,0,1,1,1,1,1,1
-0.003695,63,0,1,1,1,1,1,1
-0.0036925,63,0,1,1,1,1,1,1
-0.00369,63,0,1,1,1,1,1,1
-0.0036875,63,0,1,1,1,1,1,1
-0.003685,63,0,1,1,1,1,1,1
-0.0036825,63,0,1,1,1,1,1,1
-0.00368,63,0,1,1,1,1,1,1
-0.0036775,63,0,1,1,1,1,1,1
-0.003675,63,0,1,1,1,1,1,1
-0.0036725,63,0,1,1,1,1,1,1
-0.00367,63,0,1,1,1,1,1,1
-0.0036675,63,0,1,1,1,1,1,1
-0.003665,63,0,1,1,1,1,1,1
-0.0036625,63,0,1,1,1,1,1,1
-0.00366,63,0,1,1,1,1,1,1
-0.0036575,63,0,1,1,1,1,1,1
-0.003655,63,0,1,1,1,1,1,1
-0.0036525,63,0,1,1,1,1,1,1
-0.00365,63,0,1,1,1,1,1,1
-0.0036475,127,1,1,1,1,1,1,1
-0.003645,127,1,1,1,1,1,1,1
-0.0036425,127,1,1,1,1,1,1,1
-0.00364,127,1,1,1,1,1,1,1
-0.0036375,127,1,1,1,1,1,1,1
-0.003635,127,1,1,1,1,1,1,1
-0.0036325,127,1,1,1,1,1,1,1
-0.00363,127,1,1,1,1,1,1,1
-0.0036275,127,1,1,1,1,1,1,1
-0.003625,127,1,1,1,1,1,1,1
-0.0036225,127,1,1,1,1,1,1,1
-0.00362,127,1,1,1,1,1,1,1
-0.0036175,127,1,1,1,1,1,1,1
-0.003615,127,1,1,1,1,1,1,1
-0.0036125,127,1,1,1,1,1,1,1
-0.00361,127,1,1,1,1,1,1,1
-0.0036075,127,1,1,1,1,1,1,1
-0.003605,127,1,1,1,1,1,1,1
-0.0036025,127,1,1,1,1,1,1,1
-0.0036,127,1,1,1,1,1,1,1
-0.0035975,127,1,1,1,1,1,1,1
-0.003595,127,1,1,1,1,1,1,1
-0.0035925,127,1,1,1,1,1,1,1
-0.00359,127,1,1,1,1,1,1,1
-0.0035875,127,1,1,1,1,1,1,1
-0.003585,127,1,1,1,1,1,1,1
-0.0035825,127,1,1,1,1,1,1,1
-0.00358,127,1,1,1,1,1,1,1
-0.0035775,127,1,1,1,1,1,1,1
-0.003575,127,1,1,1,1,1,1,1
-0.0035725,127,1,1,1,1,1,1,1
-0.00357,127,1,1,1,1,1,1,1
-0.0035675,127,1,1,1,1,1,1,1
-0.003565,127,1,1,1,1,1,1,1
-0.0035625,127,1,1,1,1,1,1,1
-0.00356,127,1,1,1,1,1,1,1
-0.0035575,127,1,1,1,1,1,1,1
-0.003555,127,1,1,1,1,1,1,1
-0.0035525,127,1,1,1,1,1,1,1
-0.00355,127,1,1,1,1,1,1,1
-0.0035475,127,1,1,1,1,1,1,1
-0.003545,127,1,1,1,1,1,1,1
-0.0035425,127,1,1,1,1,1,1,1
-0.00354,127,1,1,1,1,1,1,1
-0.0035375,127,1,1,1,1,1,1,1
-0.003535,127,1,1,1,1,1,1,1
-0.0035325,127,1,1,1,1,1,1,1
-0.00353,127,1,1,1,1,1,1,1
-0.0035275,127,1,1,1,1,1,1,1
-0.003525,127,1,1,1,1,1,1,1
-0.0035225,127,1,1,1,1,1,1,1
-0.00352,127,1,1,1,1,1,1,1
-0.0035175,127,1,1,1,1,1,1,1
-0.003515,0,0,0,0,0,0,0,0
-0.0035125,0,0,0,0,0,0,0,0
-0.00351,0,0,0,0,0,0,0,0
-0.0035075,0,0,0,0,0,0,0,0
-0.003505,0,0,0,0,0,0,0,0
-0.0035025,0,0,0,0,0,0,0,0
-0.0035,0,0,0,0,0,0,0,0
-0.0034975,0,0,0,0,0,0,0,0
-0.003495,0,0,0,0,0,0,0,0
-0.0034925,0,0,0,0,0,0,0,0
-0.00349,0,0,0,0,0,0,0,0
-0.0034875,0,0,0,0,0,0,0,0
-0.003485,0,0,0,0,0,0,0,0
-0.0034825,0,0,0,0,0,0,0,0
-0.00348,0,0,0,0,0,0,0,0
-0.0034775,0,0,0,0,0,0,0,0
-0.003475,0,0,0,0,0,0,0,0
-0.0034725,0,0,0,0,0,0,0,0
-0.00347,0,0,0,0,0,0,0,0
-0.0034675,0,0,0,0,0,0,0,0
-0.003465,0,0,0,0,0,0,0,0
-0.0034625,0,0,0,0,0,0,0,0
-0.00346,0,0,0,0,0,0,0,0
-0.0034575,0,0,0,0,0,0,0,0
-0.003455,0,0,0,0,0,0,0,0
-0.0034525,0,0,0,0,0,0,0,0
-0.00345,0,0,0,0,0,0,0,0
-0.0034475,0,0,0,0,0,0,0,0
-0.003445,0,0,0,0,0,0,0,0
-0.0034425,0,0,0,0,0,0,0,0
-0.00344,0,0,0,0,0,0,0,0
-0.0034375,0,0,0,0,0,0,0,0
-0.003435,0,0,0,0,0,0,0,0
-0.0034325,0,0,0,0,0,0,0,0
-0.00343,0,0,0,0,0,0,0,0
-0.0034275,0,0,0,0,0,0,0,0
-0.003425,0,0,0,0,0,0,0,0
-0.0034225,0,0,0,0,0,0,0,0
-0.00342,0,0,0,0,0,0,0,0
-0.0034175,0,0,0,0,0,0,0,0
-0.003415,0,0,0,0,0,0,0,0
-0.0034125,0,0,0,0,0,0,0,0
-0.00341,0,0,0,0,0,0,0,0
-0.0034075,0,0,0,0,0,0,0,0
-0.003405,0,0,0,0,0,0,0,0
-0.0034025,0,0,0,0,0,0,0,0
-0.0034,0,0,0,0,0,0,0,0
-0.0033975,0,0,0,0,0,0,0,0
-0.003395,0,0,0,0,0,0,0,0
-0.0033925,0,0,0,0,0,0,0,0
-0.00339,0,0,0,0,0,0,0,0
-0.0033875,0,0,0,0,0,0,0,0
-0.003385,0,0,0,0,0,0,0,0
-0.0033825,0,0,0,0,0,0,0,0
-0.00338,0,0,0,0,0,0,0,0
-0.0033775,0,0,0,0,0,0,0,0
-0.003375,0,0,0,0,0,0,0,0
-0.0033725,0,0,0,0,0,0,0,0
-0.00337,0,0,0,0,0,0,0,0
-0.0033675,0,0,0,0,0,0,0,0
-0.003365,0,0,0,0,0,0,0,0
-0.0033625,0,0,0,0,0,0,0,0
-0.00336,0,0,0,0,0,0,0,0
-0.0033575,0,0,0,0,0,0,0,0
-0.003355,0,0,0,0,0,0,0,0
-0.0033525,0,0,0,0,0,0,0,0
-0.00335,0,0,0,0,0,0,0,0
-0.0033475,0,0,0,0,0,0,0,0
-0.003345,0,0,0,0,0,0,0,0
-0.0033425,0,0,0,0,0,0,0,0
-0.00334,0,0,0,0,0,0,0,0
-0.0033375,0,0,0,0,0,0,0,0
-0.003335,0,0,0,0,0,0,0,0
-0.0033325,0,0,0,0,0,0,0,0
-0.00333,0,0,0,0,0,0,0,0
-0.0033275,0,0,0,0,0,0,0,0
-0.003325,0,0,0,0,0,0,0,0
-0.0033225,0,0,0,0,0,0,0,0
-0.00332,0,0,0,0,0,0,0,0
-0.0033175,0,0,0,0,0,0,0,0
-0.003315,0,0,0,0,0,0,0,0
-0.0033125,0,0,0,0,0,0,0,0
-0.00331,0,0,0,0,0,0,0,0
-0.0033075,0,0,0,0,0,0,0,0
-0.003305,0,0,0,0,0,0,0,0
-0.0033025,0,0,0,0,0,0,0,0
-0.0033,0,0,0,0,0,0,0,0
-0.0032975,0,0,0,0,0,0,0,0
-0.003295,0,0,0,0,0,0,0,0
-0.0032925,0,0,0,0,0,0,0,0
-0.00329,0,0,0,0,0,0,0,0
-0.0032875,0,0,0,0,0,0,0,0
-0.003285,0,0,0,0,0,0,0,0
-0.0032825,0,0,0,0,0,0,0,0
-0.00328,0,0,0,0,0,0,0,0
-0.0032775,0,0,0,0,0,0,0,0
-0.003275,0,0,0,0,0,0,0,0
-0.0032725,0,0,0,0,0,0,0,0
-0.00327,0,0,0,0,0,0,0,0
